
T5AE4 180:113 SEGGER J-Link V6.12 Log File (0001ms, 0263ms total)
T5AE4 180:113 DLL Compiled: Nov 25 2016 18:08:26 (0001ms, 0263ms total)
T5AE4 180:113 Logging started @ 2018-04-02 08:17 (0001ms, 0263ms total)
T5AE4 181:024 JLINK_ExecCommand("Device = ATSAM4CMP16C:0", ...).   returns 0x00 (0002ms, 0265ms total)
T5AE4 181:052 JLINK_ExecCommand("ProjectFile = C:\Users\TI0623\Dropbox\EOS\01. Proyectos\05. Monitor de Transformador\Z0000003_3PSM_APFW\Z0000003v02_3PSM_APFW\1. Source Code\Z0000003v02_3PSM_APFW\jlink.config", ...).   returns 0x00 (0002ms, 0267ms total)
T5AE4 182:021 JLINK_ExecCommand("Device = ATSAM4CMP16C:0", ...).   returns 0x00 (0003ms, 0270ms total)
T5AE4 182:024 JLINK_TIF_Select(JLINKARM_TIF_JTAG)  returns 0x00 (0015ms, 0285ms total)
T5AE4 182:039 JLINK_GetIdData(...) >0x2F8 JTAG>TotalIRLen = 4, IRPrint = 0x01 >0x30 JTAG> >0x410 JTAG> >0x70 JTAG> >0x48 JTAG> >0x40 JTAG> >0x48 JTAG>AP-IDR: 0x24770011, Type: AHB-APStart searching for Cortex-M ROM table with ROMTable[0] @ 0xE00FF000.ROMTable[1]: Cortex-M ROM table found. >0x78 JTAG> >0x40 JTAG> >0x30 JTAG> >0x40 JTAG> >0x40 JTAG> >0x30 JTAG> >0x40 JTAG> >0x48 JTAG> -- CPU_ReadMem(4 bytes @ 0xE000EDF0) -- CPU_WriteMem(4 bytes @ 0xE000EDF0) -- CPU_ReadMem(4 bytes @ 0xE0002000)
 -- CPU_ReadMem(4 bytes @ 0xE000EDFC) -- CPU_WriteMem(4 bytes @ 0xE000EDFC) -- CPU_ReadMem(4 bytes @ 0xE0001000) -- CPU_WriteMem(4 bytes @ 0xE0001000) -- CPU_ReadMem(4 bytes @ 0xE000ED88) -- CPU_WriteMem(4 bytes @ 0xE000ED88) -- CPU_ReadMem(4 bytes @ 0xE000ED88) -- CPU_WriteMem(4 bytes @ 0xE000ED88)CoreSight components:ROMTbl 0 @ E00FF000 -- CPU_ReadMem(16 bytes @ 0xE00FF000) -- CPU_ReadMem(16 bytes @ 0xE000EFF0) -- CPU_ReadMem(16 bytes @ 0xE000EFE0)
ROMTbl 0 [0]: FFF0F000, CID: B105E00D, PID: 000BB000 SCS -- CPU_ReadMem(16 bytes @ 0xE0001FF0) -- CPU_ReadMem(16 bytes @ 0xE0001FE0)ROMTbl 0 [1]: FFF02000, CID: B105E00D, PID: 003BB002 DWT -- CPU_ReadMem(16 bytes @ 0xE0002FF0) -- CPU_ReadMem(16 bytes @ 0xE0002FE0)ROMTbl 0 [2]: FFF03000, CID: B105E00D, PID: 002BB003 FPB -- CPU_ReadMem(16 bytes @ 0xE0000FF0) -- CPU_ReadMem(16 bytes @ 0xE0000FE0)ROMTbl 0 [3]: FFF01000, CID: B105E00D, PID: 003BB001 ITM -- CPU_ReadMem(16 bytes @ 0xE00FF010)
 -- CPU_ReadMem(16 bytes @ 0xE0040FF0) -- CPU_ReadMem(16 bytes @ 0xE0040FE0)ROMTbl 0 [4]: FFF41000, CID: B105900D, PID: 000BB9A1 TPIU ScanLen=4 NumDevices=1 aId[0]=0x4BA00477 aIrRead[0]=0 aScanLen[0]=0 aScanRead[0]=0 (0030ms, 0315ms total)
T5AE4 182:069 JLINK_ConfigJTAG(IRPre = 0, DRPre = 0) (0000ms, 0315ms total)
T5AE4 182:069 JLINK_SetSpeed(4000) (0000ms, 0315ms total)
T5AE4 182:069 JLINK_ResetPullsRESET(OFF) (0000ms, 0315ms total)
T5AE4 182:069 JLINK_Connect() >0x2F8 JTAG>TotalIRLen = 4, IRPrint = 0x01 >0x30 JTAG> >0x410 JTAG> >0x70 JTAG> >0x48 JTAG> >0x40 JTAG> >0x48 JTAG>AP-IDR: 0x24770011, Type: AHB-APStart searching for Cortex-M ROM table with ROMTable[0] @ 0xE00FF000.ROMTable[1]: Cortex-M ROM table found. >0x78 JTAG> >0x40 JTAG> >0x30 JTAG> >0x40 JTAG> >0x40 JTAG> >0x30 JTAG> >0x40 JTAG> >0x48 JTAG> -- CPU_ReadMem(4 bytes @ 0xE000EDF0) -- CPU_ReadMem(4 bytes @ 0xE0002000) -- CPU_ReadMem(4 bytes @ 0xE000EDFC)
 -- CPU_ReadMem(4 bytes @ 0xE0001000) -- CPU_WriteMem(4 bytes @ 0xE0001000) -- CPU_ReadMem(4 bytes @ 0xE000ED88) -- CPU_WriteMem(4 bytes @ 0xE000ED88) -- CPU_ReadMem(4 bytes @ 0xE000ED88) -- CPU_WriteMem(4 bytes @ 0xE000ED88)CoreSight components:ROMTbl 0 @ E00FF000 -- CPU_ReadMem(16 bytes @ 0xE00FF000) -- CPU_ReadMem(16 bytes @ 0xE000EFF0) -- CPU_ReadMem(16 bytes @ 0xE000EFE0)ROMTbl 0 [0]: FFF0F000, CID: B105E00D, PID: 000BB000 SCS -- CPU_ReadMem(16 bytes @ 0xE0001FF0)
 -- CPU_ReadMem(16 bytes @ 0xE0001FE0)ROMTbl 0 [1]: FFF02000, CID: B105E00D, PID: 003BB002 DWT -- CPU_ReadMem(16 bytes @ 0xE0002FF0) -- CPU_ReadMem(16 bytes @ 0xE0002FE0)ROMTbl 0 [2]: FFF03000, CID: B105E00D, PID: 002BB003 FPB -- CPU_ReadMem(16 bytes @ 0xE0000FF0) -- CPU_ReadMem(16 bytes @ 0xE0000FE0)ROMTbl 0 [3]: FFF01000, CID: B105E00D, PID: 003BB001 ITM -- CPU_ReadMem(16 bytes @ 0xE00FF010) -- CPU_ReadMem(16 bytes @ 0xE0040FF0) -- CPU_ReadMem(16 bytes @ 0xE0040FE0)
ROMTbl 0 [4]: FFF41000, CID: B105900D, PID: 000BB9A1 TPIU  returns 0x00 (0014ms, 0329ms total)
T5AE4 182:083 JLINK_Halt()  returns 0x00 (0004ms, 0333ms total)
T5AE4 182:088 JLINK_JTAG_GetDeviceID(DeviceIndex = 0)  returns 0x4BA00477 (0000ms, 0333ms total)
T5AE4 182:088 JLINK_ReadMemU32(0x400E0740, 0x0001 Items, ...) -- CPU_ReadMem(4 bytes @ 0x400E0740) - Data: E1 0C 4C A6  returns 0x01 (0001ms, 0334ms total)
T5AE4 182:089 JLINK_ReadMemU32(0x400E0744, 0x0001 Items, ...) -- CPU_ReadMem(4 bytes @ 0x400E0744) - Data: 01 00 00 00  returns 0x01 (0000ms, 0334ms total)
T48DC 182:100 JLINK_IsHalted()  returns TRUE (0003ms, 0337ms total)
T48DC 182:103 JLINK_GetMOEs(...) -- CPU_ReadMem(4 bytes @ 0xE000ED30)  returns 0x01 (0000ms, 0334ms total)
T48DC 182:103 JLINK_ReadReg(R15 (PC))  returns 0x20000004 (0000ms, 0334ms total)
T5AE4 182:285 JLINK_BeginDownload(Flags = 0x00) (0000ms, 0334ms total)
T5AE4 182:285 JLINK_WriteMem(0x01010000, 0x28D40 Bytes, ...) - Data: E8 A2 01 20 91 DB 02 01 2D DC 02 01 2D DC 02 01 ...  returns 0x28D40 (0000ms, 0334ms total)
T5AE4 182:286 JLINK_WriteMem(0x01038D40, 0x0008 Bytes, ...) - Data: 60 79 FF 7F 01 00 00 00  returns 0x08 (0000ms, 0334ms total)
T5AE4 182:286 JLINK_WriteMem(0x01038D48, 0x08EB Bytes, ...) - Data: BF F3 5F 8F 01 38 FB D1 70 47 00 BF 30 B4 82 B0 ...  returns 0x8EB (0000ms, 0334ms total)
T48DC 182:304 JLINK_IsHalted()  returns TRUE (0000ms, 0334ms total)
T5AE4 182:345 JLINK_EndDownload()Old firmware which does not support pausing periodic actions during flash download -- -------------------------------------- -- Start of determining dirty areas in flash cache -- End of determining dirty areas -- Start of preparing flash programming -- Calculating RAM usage -- RAM usage = 5932 Bytes -- Preserving CPU registers -- Preparing memory -- Determining CPU clock frequency -- Preparing target -- Downloading RAMCode -- Checking target RAM -- Preparing RAMCode
 -- End of preparing flash programming -- CPU speed could not be measured. -- Start of comparing flash -- CRC check was estimated as fastest method -- Comparing range 0x1010000 - 0x102FFFF (32 Sectors, 128 KB), using multi-block CRC calculation -- CRC does not match for sectors 0-31 -- Comparing range 0x1030000 - 0x1039FFF (10 Sectors, 40 KB), using multi-block CRC calculation -- CRC does not match for sectors 0-1, 8
 -- Comparing range 0x1032000 - 0x1037FFF (6 Sectors, 24 KB), using alternative multi-block CRC calculation -- All CRCs match -- Comparing range 0x1039000 - 0x1039FFF (1 Sector, 4 KB), using alternative multi-block CRC calculation -- All CRCs match -- End of comparing flash -- Start of erasing sectors -- Erasing range 0x01010000 - 0x01017FFF (008 Sectors, 32 KB) -- Erasing range 0x01018000 - 0x0101FFFF (008 Sectors, 32 KB) -- Erasing range 0x01020000 - 0x01027FFF (008 Sectors, 32 KB)
 -- Erasing range 0x01028000 - 0x0102FFFF (008 Sectors, 32 KB) -- Erasing range 0x01030000 - 0x01031FFF (002 Sectors, 8 KB) -- Erasing range 0x01038000 - 0x01038FFF (001 Sector, 4 KB) -- End of erasing sectors -- Start of flash programming -- Programming range 0x01010000 - 0x01017FFF (008 Sectors, 32 KB) -- Programming range 0x01018000 - 0x0101FFFF (008 Sectors, 32 KB) -- Programming range 0x01020000 - 0x01027FFF (008 Sectors, 32 KB) -- Programming range 0x01028000 - 0x0102FFFF (008 Sectors, 32 KB)
 -- Programming range 0x01030000 - 0x01031FFF (002 Sectors, 8 KB) -- Programming range 0x01038000 - 0x01038FFF (001 Sector, 4 KB) -- End of flash programming -- 0x1010000 - 0x1031FFF (034 Sectors, 136 KB) -- 0x1038000 - 0x1038FFF (001 Sector, 4 KB) -- Start of verifying flash -- Checksum calculation was estimated as fastest method -- Checksum is not supported by this flash bank. Switched to CRC method. -- Checksum is not supported by this flash bank. Switched to CRC method.
 -- Checksum calculation was estimated as fastest method -- Checksum is not supported by this flash bank. Switched to CRC method. -- End of verifying flash -- Start of restoring -- Restoring RAMCode -- Restore target -- Restore memory -- Restoring CPU registers -- End of restoring -- Flash programming performed for 2 ranges (143360 bytes) -- Total time needed: 1.527s (Prepare: 0.027s, Compare: 0.040s, Erase: 0.906s, Program: 0.544s, Verify: 0.005s, Restore: 0.004s)  returns 0x23000
 (1531ms, 1865ms total)
T48DC 183:876 JLINK_IsHalted()  returns TRUE (0001ms, 1866ms total)
T48DC 184:082 JLINK_IsHalted()  returns TRUE (0000ms, 1866ms total)
T16C8 184:191 JLINK_Halt()  returns 0x00 (0000ms, 1866ms total)
T16C8 184:191 JLINK_ReadReg(R15 (PC))  returns 0x20000004 (0000ms, 1866ms total)
T16C8 184:191 JLINK_ReadReg(R13 (SP))  returns 0x2000B898 (0000ms, 1866ms total)
T16C8 184:197 JLINK_ReadMem (0x20000004, 0x0004 Bytes, ...) -- CPU_ReadMem(64 bytes @ 0x20000000) -- Updating C cache (64 bytes @ 0x20000000) -- Read from C cache (4 bytes @ 0x20000004) - Data: 00 99 00 F0  returns 0x00 (0001ms, 1867ms total)
T16C8 184:199 JLINK_ReadReg(R0)  returns 0x000BB95D (0000ms, 1867ms total)
T16C8 184:199 JLINK_ReadReg(R1)  returns 0x00000000 (0000ms, 1867ms total)
T16C8 184:199 JLINK_ReadReg(R2)  returns 0x5A000000 (0000ms, 1867ms total)
T16C8 184:199 JLINK_ReadReg(R3)  returns 0x20000001 (0000ms, 1867ms total)
T16C8 184:199 JLINK_ReadReg(R4)  returns 0x4007C000 (0000ms, 1867ms total)
T16C8 184:199 JLINK_ReadReg(R5)  returns 0x400E0200 (0000ms, 1867ms total)
T16C8 184:199 JLINK_ReadReg(R6)  returns 0x0101F09D (0000ms, 1867ms total)
T16C8 184:199 JLINK_ReadReg(R7)  returns 0x20016EEC (0000ms, 1867ms total)
T16C8 184:199 JLINK_ReadReg(R8)  returns 0x00000002 (0000ms, 1867ms total)
T16C8 184:199 JLINK_ReadReg(R9)  returns 0x010305ED (0000ms, 1867ms total)
T16C8 184:199 JLINK_ReadReg(R10)  returns 0x01019961 (0000ms, 1867ms total)
T16C8 184:199 JLINK_ReadReg(R11)  returns 0x20017160 (0000ms, 1867ms total)
T16C8 184:199 JLINK_ReadReg(R12)  returns 0x20080000 (0000ms, 1867ms total)
T16C8 184:199 JLINK_ReadReg(R13 (SP))  returns 0x2000B898 (0000ms, 1867ms total)
T16C8 184:199 JLINK_ReadReg(R14)  returns 0x0102B713 (0000ms, 1867ms total)
T16C8 184:199 JLINK_ReadReg(R15 (PC))  returns 0x20000004 (0000ms, 1867ms total)
T16C8 184:199 JLINK_ReadReg(XPSR)  returns 0x21000000 (0000ms, 1867ms total)
T16C8 184:199 JLINK_ReadReg(MSP)  returns 0x2001A2C8 (0000ms, 1867ms total)
T16C8 184:199 JLINK_ReadReg(PSP)  returns 0x2000B898 (0000ms, 1867ms total)
T16C8 184:199 JLINK_ReadReg(PRIMASK)  returns 0x00000000 (0000ms, 1867ms total)
T16C8 184:199 JLINK_ReadReg(BASEPRI)  returns 0x00000000 (0000ms, 1867ms total)
T16C8 184:199 JLINK_ReadReg(FAULTMASK)  returns 0x00000000 (0000ms, 1867ms total)
T16C8 184:199 JLINK_ReadReg(CONTROL)  returns 0x02000000 (0000ms, 1867ms total)
T16C8 184:200 JLINK_ReadMem (0x20000004, 0x0002 Bytes, ...) -- Read from C cache (2 bytes @ 0x20000004) - Data: 00 99  returns 0x00 (0000ms, 1867ms total)
T16C8 184:265 JLINK_ReadReg(R0)  returns 0x000BB95D (0000ms, 1867ms total)
T16C8 184:265 JLINK_ReadReg(R1)  returns 0x00000000 (0000ms, 1867ms total)
T16C8 184:265 JLINK_ReadReg(R2)  returns 0x5A000000 (0000ms, 1867ms total)
T16C8 184:265 JLINK_ReadReg(R3)  returns 0x20000001 (0000ms, 1867ms total)
T16C8 184:265 JLINK_ReadReg(R4)  returns 0x4007C000 (0000ms, 1867ms total)
T16C8 184:265 JLINK_ReadReg(R5)  returns 0x400E0200 (0000ms, 1867ms total)
T16C8 184:265 JLINK_ReadReg(R6)  returns 0x0101F09D (0000ms, 1867ms total)
T16C8 184:265 JLINK_ReadReg(R7)  returns 0x20016EEC (0000ms, 1867ms total)
T16C8 184:265 JLINK_ReadReg(R8)  returns 0x00000002 (0000ms, 1867ms total)
T16C8 184:265 JLINK_ReadReg(R9)  returns 0x010305ED (0000ms, 1867ms total)
T16C8 184:265 JLINK_ReadReg(R10)  returns 0x01019961 (0000ms, 1867ms total)
T16C8 184:265 JLINK_ReadReg(R11)  returns 0x20017160 (0000ms, 1867ms total)
T16C8 184:265 JLINK_ReadReg(R12)  returns 0x20080000 (0000ms, 1867ms total)
T16C8 184:265 JLINK_ReadReg(R13 (SP))  returns 0x2000B898 (0000ms, 1867ms total)
T16C8 184:265 JLINK_ReadReg(R14)  returns 0x0102B713 (0000ms, 1867ms total)
T16C8 184:265 JLINK_ReadReg(R15 (PC))  returns 0x20000004 (0000ms, 1867ms total)
T16C8 184:265 JLINK_ReadReg(XPSR)  returns 0x21000000 (0000ms, 1867ms total)
T16C8 184:265 JLINK_ReadReg(MSP)  returns 0x2001A2C8 (0000ms, 1867ms total)
T16C8 184:265 JLINK_ReadReg(PSP)  returns 0x2000B898 (0000ms, 1867ms total)
T16C8 184:265 JLINK_ReadReg(PRIMASK)  returns 0x00000000 (0000ms, 1867ms total)
T16C8 184:265 JLINK_ReadReg(BASEPRI)  returns 0x00000000 (0001ms, 1868ms total)
T16C8 184:266 JLINK_ReadReg(FAULTMASK)  returns 0x00000000 (0000ms, 1868ms total)
T16C8 184:266 JLINK_ReadReg(CONTROL)  returns 0x02000000 (0000ms, 1868ms total)
T16C8 184:278 JLINK_ReadMem (0x20000004, 0x0004 Bytes, ...) -- Read from C cache (4 bytes @ 0x20000004) - Data: 00 99 00 F0  returns 0x00 (0000ms, 1868ms total)
T48DC 184:283 JLINK_IsHalted()  returns TRUE (0001ms, 1869ms total)
T16C8 184:345 JLINK_ReadMemHW(0x01010596, 0x0002 Bytes, ...) -- CPU_ReadMem(2 bytes @ 0x01010596) - Data: 02 68  returns 0x00 (0000ms, 1868ms total)
T16C8 184:346 JLINK_ReadMemHW(0x010105D0, 0x0002 Bytes, ...) -- CPU_ReadMem(2 bytes @ 0x010105D0) - Data: 13 7A  returns 0x00 (0000ms, 1868ms total)
T5AE4 184:417 JLINK_GetNumBPUnits(Type = 0xFFFFFF02)  returns 0x06 (0000ms, 1868ms total)
T5AE4 184:417 JLINK_SetBPEx(Addr = 0x010105D0, Type = 0xFFFFFFF2)  returns 0x00000001 (0000ms, 1868ms total)
T5AE4 184:417 JLINK_GetBPInfo(BPHandle = 1)  returns 0x00 (0000ms, 1868ms total)
T48DC 184:486 JLINK_IsHalted()  returns TRUE (0000ms, 1868ms total)
T48DC 184:686 JLINK_IsHalted()  returns TRUE (0000ms, 1868ms total)
T16C8 184:753 JLINK_Reset() -- CPU_ReadMem(16 bytes @ 0x20000000) -- CPU_WriteMem(16 bytes @ 0x20000000) -- CPU_ReadMem(4 bytes @ 0xE000EDFC) -- CPU_WriteMem(4 bytes @ 0xE000EDFC) -- CPU_ReadMem(4 bytes @ 0xE0001000) -- CPU_WriteMem(4 bytes @ 0xE000EDFC) -- CPU_WriteMem(16 bytes @ 0x20000000) -- CPU_WriteMem(4 bytes @ 0xE0002000) -- CPU_ReadMem(4 bytes @ 0xE000EDFC) -- CPU_ReadMem(4 bytes @ 0xE0001000) (0023ms, 1891ms total)
T48DC 184:776 JLINK_IsHalted()  returns TRUE (0000ms, 1891ms total)
T48DC 184:776 JLINK_GetMOEs(...) -- CPU_ReadMem(4 bytes @ 0xE000ED30)  returns 0x01 (0000ms, 1891ms total)
T48DC 184:776 JLINK_ReadReg(R15 (PC))  returns 0x01004364 (0000ms, 1891ms total)
T16C8 184:786 JLINK_ReadReg(R15 (PC))  returns 0x01004364 (0000ms, 1891ms total)
T16C8 184:786 JLINK_ReadReg(R13 (SP))  returns 0x20004E78 (0000ms, 1891ms total)
T16C8 184:786 JLINK_ReadMemHW(0x01004364, 0x0004 Bytes, ...) -- CPU_ReadMem(4 bytes @ 0x01004364) - Data: 08 B5 1D 4A  returns 0x00 (0000ms, 1891ms total)
T16C8 184:787 JLINK_ReadReg(R0)  returns 0x00000000 (0000ms, 1891ms total)
T16C8 184:787 JLINK_ReadReg(R1)  returns 0x00000000 (0000ms, 1891ms total)
T16C8 184:787 JLINK_ReadReg(R2)  returns 0x00000000 (0000ms, 1891ms total)
T16C8 184:787 JLINK_ReadReg(R3)  returns 0x00000000 (0000ms, 1891ms total)
T16C8 184:787 JLINK_ReadReg(R4)  returns 0x00000000 (0000ms, 1891ms total)
T16C8 184:787 JLINK_ReadReg(R5)  returns 0x00000000 (0000ms, 1891ms total)
T16C8 184:787 JLINK_ReadReg(R6)  returns 0x00000000 (0000ms, 1891ms total)
T16C8 184:787 JLINK_ReadReg(R7)  returns 0x00000000 (0000ms, 1891ms total)
T16C8 184:787 JLINK_ReadReg(R8)  returns 0x00000000 (0000ms, 1891ms total)
T16C8 184:787 JLINK_ReadReg(R9)  returns 0x00000000 (0000ms, 1891ms total)
T16C8 184:787 JLINK_ReadReg(R10)  returns 0x00000000 (0000ms, 1891ms total)
T16C8 184:787 JLINK_ReadReg(R11)  returns 0x00000000 (0000ms, 1891ms total)
T16C8 184:787 JLINK_ReadReg(R12)  returns 0x00000000 (0000ms, 1891ms total)
T16C8 184:787 JLINK_ReadReg(R13 (SP))  returns 0x20004E78 (0000ms, 1891ms total)
T16C8 184:787 JLINK_ReadReg(R14)  returns 0xFFFFFFFF (0000ms, 1891ms total)
T16C8 184:787 JLINK_ReadReg(R15 (PC))  returns 0x01004364 (0000ms, 1891ms total)
T16C8 184:787 JLINK_ReadReg(XPSR)  returns 0x01000000 (0000ms, 1891ms total)
T16C8 184:787 JLINK_ReadReg(MSP)  returns 0x20004E78 (0000ms, 1891ms total)
T16C8 184:787 JLINK_ReadReg(PSP)  returns 0x00000000 (0000ms, 1891ms total)
T16C8 184:787 JLINK_ReadReg(PRIMASK)  returns 0x00000000 (0000ms, 1891ms total)
T16C8 184:787 JLINK_ReadReg(BASEPRI)  returns 0x00000000 (0000ms, 1891ms total)
T16C8 184:787 JLINK_ReadReg(FAULTMASK)  returns 0x00000000 (0000ms, 1891ms total)
T16C8 184:787 JLINK_ReadReg(CONTROL)  returns 0x00000000 (0000ms, 1891ms total)
T16C8 184:788 JLINK_ReadMemHW(0x01004364, 0x0002 Bytes, ...) -- CPU_ReadMem(2 bytes @ 0x01004364) - Data: 08 B5  returns 0x00 (0000ms, 1891ms total)
T48DC 184:977 JLINK_IsHalted()  returns TRUE (0000ms, 1891ms total)
T16C8 185:092 JLINK_ReadMemHW(0x0102F630, 0x0001 Bytes, ...) -- CPU_ReadMem(1 bytes @ 0x0102F630) - Data: 08  returns 0x00 (0000ms, 1891ms total)
T16C8 185:155 JLINK_ReadReg(R15 (PC))  returns 0x01004364 (0000ms, 1891ms total)
T16C8 185:155 JLINK_SetBPEx(Addr = 0x0102F630, Type = 0xFFFFFFF2)  returns 0x00000002 (0000ms, 1891ms total)
T16C8 185:155 JLINK_GetBPInfo(BPHandle = 2)  returns 0x00 (0000ms, 1891ms total)
T16C8 185:155 JLINK_Go() -- CPU_WriteMem(4 bytes @ 0xE0002000) -- CPU_ReadMem(4 bytes @ 0xE0001000) -- CPU_WriteMem(4 bytes @ 0xE000ED30) -- CPU_WriteMem(4 bytes @ 0xE0002008) -- CPU_WriteMem(4 bytes @ 0xE000200C) -- CPU_WriteMem(4 bytes @ 0xE0002010) -- CPU_WriteMem(4 bytes @ 0xE0002014) -- CPU_WriteMem(4 bytes @ 0xE0002018) -- CPU_WriteMem(4 bytes @ 0xE000201C) -- CPU_WriteMem(4 bytes @ 0xE0001004) (0004ms, 1895ms total)
T48DC 185:159 JLINK_IsHalted()  returns FALSE (0001ms, 1896ms total)
T48DC 185:180 JLINK_IsHalted()  returns FALSE (0000ms, 1895ms total)
T48DC 185:261 JLINK_IsHalted()  returns FALSE (0000ms, 1895ms total)
T48DC 185:461 JLINK_IsHalted()  returns FALSE (0000ms, 1895ms total)
T48DC 185:663 JLINK_IsHalted()  returns FALSE (0000ms, 1895ms total)
T48DC 185:863 JLINK_IsHalted()  returns FALSE (0000ms, 1895ms total)
T48DC 186:064 JLINK_IsHalted()  returns FALSE (0000ms, 1895ms total)
T48DC 186:264 JLINK_IsHalted()  returns FALSE (0000ms, 1895ms total)
T48DC 186:465 JLINK_IsHalted()  returns FALSE (0000ms, 1895ms total)
T48DC 186:665 JLINK_IsHalted()  returns FALSE (0000ms, 1895ms total)
T48DC 186:866 JLINK_IsHalted()  returns FALSE (0000ms, 1895ms total)
T48DC 187:066 JLINK_IsHalted()  returns FALSE (0000ms, 1895ms total)
T48DC 187:267 JLINK_IsHalted()  returns FALSE (0000ms, 1895ms total)
T48DC 187:469 JLINK_IsHalted()  returns FALSE (0000ms, 1895ms total)
T48DC 187:669 JLINK_IsHalted()  returns FALSE (0000ms, 1895ms total)
T48DC 187:870 JLINK_IsHalted()  returns FALSE (0000ms, 1895ms total)
T48DC 188:070 JLINK_IsHalted()  returns FALSE (0000ms, 1895ms total)
T48DC 188:271 JLINK_IsHalted()  returns FALSE (0000ms, 1895ms total)
T48DC 188:471 JLINK_IsHalted()  returns FALSE (0000ms, 1895ms total)
T48DC 188:672 JLINK_IsHalted()  returns FALSE (0000ms, 1895ms total)
T48DC 188:872 JLINK_IsHalted()  returns FALSE (0001ms, 1896ms total)
T16C8 188:957 JLINK_Halt()  returns 0x00 (0003ms, 1898ms total)
T48DC 189:074 JLINK_IsHalted()  returns TRUE (0000ms, 1898ms total)
T48DC 189:074 JLINK_GetMOEs(...) -- CPU_ReadMem(4 bytes @ 0xE000ED30)  returns 0x01 (0000ms, 1898ms total)
T48DC 189:074 JLINK_ReadReg(R15 (PC))  returns 0x0100414A (0000ms, 1898ms total)
T5AE4 189:075 JLINK_WriteU32(0xE000EDFC, 0x01000000) -- CPU_WriteMem(4 bytes @ 0xE000EDFC)  returns 0x00 (0000ms, 1898ms total)
T5AE4 189:075 JLINK_ReadMem (0xE0001000, 0x0004 Bytes, ...) -- CPU_ReadMem(4 bytes @ 0xE0001000) - Data: 01 00 00 40  returns 0x00 (0001ms, 1899ms total)
T5AE4 189:076 JLINK_WriteU32(0xE0001000, 0x40000001)  returns 0x00 (0000ms, 1899ms total)
T5AE4 189:076 JLINK_WriteU32(0xE0001028, 0x00000100)  returns 0x00 (0000ms, 1899ms total)
T5AE4 189:076 JLINK_ReadMem (0xE0001028, 0x0004 Bytes, ...) -- CPU_WriteMem(4 bytes @ 0xE0001028) -- CPU_ReadMem(4 bytes @ 0xE0001028) - Data: 00 00 00 00  returns 0x00 (0001ms, 1900ms total)
T5AE4 189:077 JLINK_WriteU32(0xE0001024, 0x0000001F)  returns 0x00 (0000ms, 1900ms total)
T5AE4 189:077 JLINK_ReadMem (0xE0001024, 0x0004 Bytes, ...) -- CPU_WriteMem(4 bytes @ 0xE0001024) -- CPU_ReadMem(4 bytes @ 0xE0001024) - Data: 0F 00 00 00  returns 0x00 (0001ms, 1901ms total)
T5AE4 189:078 JLINK_WriteU32(0xE0001038, 0x00000100)  returns 0x00 (0000ms, 1901ms total)
T5AE4 189:078 JLINK_ReadMem (0xE0001038, 0x0004 Bytes, ...) -- CPU_WriteMem(4 bytes @ 0xE0001038) -- CPU_ReadMem(4 bytes @ 0xE0001038) - Data: 00 03 00 00  returns 0x00 (0001ms, 1902ms total)
T5AE4 189:079 JLINK_WriteU32(0xE0001034, 0x0000001F)  returns 0x00 (0000ms, 1902ms total)
T5AE4 189:079 JLINK_ReadMem (0xE0001034, 0x0004 Bytes, ...) -- CPU_WriteMem(4 bytes @ 0xE0001034) -- CPU_ReadMem(4 bytes @ 0xE0001034) - Data: 0F 00 00 00  returns 0x00 (0001ms, 1903ms total)
T5AE4 189:080 JLINK_WriteU32(0xE0001048, 0x00000100)  returns 0x00 (0000ms, 1903ms total)
T5AE4 189:080 JLINK_ReadMem (0xE0001048, 0x0004 Bytes, ...) -- CPU_WriteMem(4 bytes @ 0xE0001048) -- CPU_ReadMem(4 bytes @ 0xE0001048) - Data: 00 00 00 00  returns 0x00 (0001ms, 1904ms total)
T5AE4 189:081 JLINK_WriteU32(0xE0001044, 0x0000001F)  returns 0x00 (0000ms, 1904ms total)
T5AE4 189:081 JLINK_ReadMem (0xE0001044, 0x0004 Bytes, ...) -- CPU_WriteMem(4 bytes @ 0xE0001044) -- CPU_ReadMem(4 bytes @ 0xE0001044) - Data: 0F 00 00 00  returns 0x00 (0001ms, 1905ms total)
T5AE4 189:082 JLINK_WriteU32(0xE0001058, 0x00000100)  returns 0x00 (0000ms, 1905ms total)
T5AE4 189:082 JLINK_ReadMem (0xE0001058, 0x0004 Bytes, ...) -- CPU_WriteMem(4 bytes @ 0xE0001058) -- CPU_ReadMem(4 bytes @ 0xE0001058) - Data: 00 00 00 00  returns 0x00 (0001ms, 1906ms total)
T5AE4 189:083 JLINK_WriteU32(0xE0001054, 0x0000001F)  returns 0x00 (0000ms, 1906ms total)
T5AE4 189:083 JLINK_ReadMem (0xE0001054, 0x0004 Bytes, ...) -- CPU_WriteMem(4 bytes @ 0xE0001054) -- CPU_ReadMem(4 bytes @ 0xE0001054) - Data: 0F 00 00 00  returns 0x00 (0001ms, 1907ms total)
T5AE4 189:084 JLINK_WriteU32(0xE0001020, 0x00000000)  returns 0x00 (0000ms, 1907ms total)
T5AE4 189:084 JLINK_WriteU32(0xE0001024, 0x00000000)  returns 0x00 (0000ms, 1907ms total)
T5AE4 189:084 JLINK_WriteU32(0xE0001028, 0x00000000)  returns 0x00 (0000ms, 1907ms total)
T5AE4 189:084 JLINK_WriteU32(0xE0001030, 0x00000000)  returns 0x00 (0000ms, 1907ms total)
T5AE4 189:084 JLINK_WriteU32(0xE0001034, 0x00000000)  returns 0x00 (0000ms, 1907ms total)
T5AE4 189:084 JLINK_WriteU32(0xE0001038, 0x00000000)  returns 0x00 (0000ms, 1907ms total)
T5AE4 189:084 JLINK_WriteU32(0xE0001040, 0x00000000)  returns 0x00 (0000ms, 1907ms total)
T5AE4 189:084 JLINK_WriteU32(0xE0001044, 0x00000000)  returns 0x00 (0000ms, 1907ms total)
T5AE4 189:084 JLINK_WriteU32(0xE0001048, 0x00000000)  returns 0x00 (0000ms, 1907ms total)
T5AE4 189:084 JLINK_WriteU32(0xE0001050, 0x00000000)  returns 0x00 (0000ms, 1907ms total)
T5AE4 189:084 JLINK_WriteU32(0xE0001054, 0x00000000)  returns 0x00 (0000ms, 1907ms total)
T5AE4 189:084 JLINK_WriteU32(0xE0001058, 0x00000000)  returns 0x00 (0000ms, 1907ms total)
T5AE4 189:084 JLINK_GetBPInfo(BPHandle = 1)  returns 0x00 (0000ms, 1907ms total)
T5AE4 189:084 JLINK_ClrBPEx(BPHandle = 0x00000001)  returns 0x00 (0000ms, 1907ms total)
T5AE4 189:084 JLINK_GetBPInfo(BPHandle = 2)  returns 0x00 (0000ms, 1907ms total)
T5AE4 189:084 JLINK_ClrBPEx(BPHandle = 0x00000002)  returns 0x00 (0000ms, 1907ms total)
T48DC 189:274 JLINK_IsHalted()  returns TRUE (0000ms, 1907ms total)
T5AE4 189:274 JLINK_ResetPullsRESET(ON) (0000ms, 1907ms total)
T5AE4 189:274 JLINK_ResetNoHalt() >0x2F8 JTAG>TotalIRLen = 4, IRPrint = 0x01 >0x30 JTAG> >0x410 JTAG> >0x70 JTAG> >0x48 JTAG> >0x40 JTAG> >0x48 JTAG>AP-IDR: 0x24770011, Type: AHB-APStart searching for Cortex-M ROM table with ROMTable[0] @ 0xE00FF000.ROMTable[1]: Cortex-M ROM table found. >0x78 JTAG> >0x40 JTAG> >0x30 JTAG> >0x40 JTAG> >0x40 JTAG> >0x30 JTAG> >0x40 JTAG> >0x48 JTAG> -- CPU_ReadMem(4 bytes @ 0xE000EDF0) -- CPU_ReadMem(4 bytes @ 0xE0002000) -- CPU_WriteMem(4 bytes @ 0xE0001000)
 -- CPU_ReadMem(4 bytes @ 0xE0001000) -- CPU_ReadMem(4 bytes @ 0xE000ED88) -- CPU_WriteMem(4 bytes @ 0xE000ED88) -- CPU_ReadMem(4 bytes @ 0xE000ED88) -- CPU_WriteMem(4 bytes @ 0xE000ED88)CoreSight components:ROMTbl 0 @ E00FF000 -- CPU_ReadMem(16 bytes @ 0xE00FF000) -- CPU_ReadMem(16 bytes @ 0xE000EFF0) -- CPU_ReadMem(16 bytes @ 0xE000EFE0)ROMTbl 0 [0]: FFF0F000, CID: B105E00D, PID: 000BB000 SCS -- CPU_WriteMem(4 bytes @ 0xE0001000) -- CPU_WriteMem(4 bytes @ 0xE0001020)
 -- CPU_WriteMem(4 bytes @ 0xE0001030) -- CPU_WriteMem(4 bytes @ 0xE0001040) -- CPU_WriteMem(4 bytes @ 0xE0001050) -- CPU_WriteMem(4 bytes @ 0xE0001024) -- CPU_WriteMem(4 bytes @ 0xE0001034) -- CPU_WriteMem(4 bytes @ 0xE0001044) -- CPU_WriteMem(4 bytes @ 0xE0001054) -- CPU_WriteMem(4 bytes @ 0xE0001028) -- CPU_WriteMem(4 bytes @ 0xE0001038) -- CPU_WriteMem(4 bytes @ 0xE0001048) -- CPU_WriteMem(4 bytes @ 0xE0001058) -- CPU_ReadMem(16 bytes @ 0xE0001FF0) -- CPU_ReadMem(16 bytes @ 0xE0001FE0)
ROMTbl 0 [1]: FFF02000, CID: B105E00D, PID: 003BB002 DWT -- CPU_ReadMem(16 bytes @ 0xE0002FF0) -- CPU_ReadMem(16 bytes @ 0xE0002FE0)ROMTbl 0 [2]: FFF03000, CID: B105E00D, PID: 002BB003 FPB -- CPU_ReadMem(16 bytes @ 0xE0000FF0) -- CPU_ReadMem(16 bytes @ 0xE0000FE0)ROMTbl 0 [3]: FFF01000, CID: B105E00D, PID: 003BB001 ITM -- CPU_ReadMem(16 bytes @ 0xE00FF010) -- CPU_ReadMem(16 bytes @ 0xE0040FF0) -- CPU_ReadMem(16 bytes @ 0xE0040FE0)ROMTbl 0 [4]: FFF41000, CID: B105900D, PID: 000BB9A1 TPIU
                JLINK_Reset() -- CPU_ReadMem(16 bytes @ 0x20000000) -- CPU_WriteMem(16 bytes @ 0x20000000) -- CPU_ReadMem(4 bytes @ 0xE000EDFC) -- CPU_WriteMem(4 bytes @ 0xE000EDFC) -- CPU_ReadMem(4 bytes @ 0xE0001000) -- CPU_WriteMem(4 bytes @ 0xE000EDFC) -- CPU_WriteMem(16 bytes @ 0x20000000) -- CPU_WriteMem(4 bytes @ 0xE0002000) -- CPU_ReadMem(4 bytes @ 0xE000EDFC) -- CPU_ReadMem(4 bytes @ 0xE0001000) (0023ms, 0023ms total)
                JLINK_Go() -- CPU_ReadMem(4 bytes @ 0xE0001000) -- CPU_WriteMem(4 bytes @ 0xE0002008) -- CPU_WriteMem(4 bytes @ 0xE000200C) -- CPU_WriteMem(4 bytes @ 0xE0002010) -- CPU_WriteMem(4 bytes @ 0xE0002014) -- CPU_WriteMem(4 bytes @ 0xE0002018) -- CPU_WriteMem(4 bytes @ 0xE000201C) -- CPU_WriteMem(4 bytes @ 0xE0001004) (0003ms, 0026ms total)
               (0045ms, 1952ms total)
T5AE4 488:683 JLINK_EMU_SelectByUSBSN(SerialNo = 28018833)  returns 0xFFFFFFFF (0000ms, 1952ms total)
T5AE4 488:683 JLINK_GetFirmwareString(...) (0000ms, 1952ms total)
T5AE4 488:683 JLINK_GetHardwareVersion()  returns 0x13880 (0000ms, 1952ms total)
T5AE4 488:683 JLINK_GetDLLVersion()  returns 61200 (0001ms, 1953ms total)
T5AE4 490:242 JLINK_ExecCommand("ProjectFile = C:\Users\TI0623\Dropbox\EOS\01. Proyectos\05. Monitor de Transformador\Z0000003_3PSM_APFW\Z0000003v02_3PSM_APFW\1. Source Code\Z0000003v02_3PSM_APFW\jlink.config", ...).   returns 0x00 (0002ms, 1955ms total)
T5AE4 497:311 JLINK_ExecCommand("Device = ATSAM4CMP16C:0", ...).   returns 0x00 (0004ms, 1959ms total)
T5AE4 497:328 JLINK_ExecCommand("ProjectFile = C:\Users\TI0623\Dropbox\EOS\01. Proyectos\05. Monitor de Transformador\Z0000003_3PSM_APFW\Z0000003v02_3PSM_APFW\1. Source Code\Z0000003v02_3PSM_APFW\jlink.config", ...).   returns 0x00 (0003ms, 1962ms total)
T5AE4 501:015 JLINK_ExecCommand("Device = ATSAM4CMP16C:0", ...).   returns 0x00 (0004ms, 1966ms total)
T5AE4 501:019 JLINK_TIF_Select(JLINKARM_TIF_JTAG)  returns 0x00 (0000ms, 1966ms total)
T5AE4 501:019 JLINK_GetIdData(...) ScanLen=4 NumDevices=1 aId[0]=0x4BA00477 aIrRead[0]=0 aScanLen[0]=0 aScanRead[0]=0 (0000ms, 1966ms total)
T5AE4 501:019 JLINK_ConfigJTAG(IRPre = 0, DRPre = 0) (0000ms, 1966ms total)
T5AE4 501:019 JLINK_SetSpeed(4000) (0000ms, 1966ms total)
T5AE4 501:019 JLINK_ResetPullsRESET(OFF) (0000ms, 1966ms total)
T5AE4 501:019 JLINK_Connect() >0x2F8 JTAG>TotalIRLen = 4, IRPrint = 0x01 >0x30 JTAG> >0x410 JTAG> >0x70 JTAG> >0x48 JTAG> >0x40 JTAG> >0x48 JTAG>AP-IDR: 0x24770011, Type: AHB-APStart searching for Cortex-M ROM table with ROMTable[0] @ 0xE00FF000.ROMTable[1]: Cortex-M ROM table found. >0x78 JTAG> >0x40 JTAG> >0x30 JTAG> >0x40 JTAG> >0x40 JTAG> >0x30 JTAG> >0x40 JTAG> >0x48 JTAG> -- CPU_ReadMem(4 bytes @ 0xE000EDF0) -- CPU_ReadMem(4 bytes @ 0xE0002000) -- CPU_ReadMem(4 bytes @ 0xE000EDFC)
 -- CPU_ReadMem(4 bytes @ 0xE0001000) -- CPU_WriteMem(4 bytes @ 0xE0001000) -- CPU_ReadMem(4 bytes @ 0xE000ED88) -- CPU_WriteMem(4 bytes @ 0xE000ED88) -- CPU_ReadMem(4 bytes @ 0xE000ED88) -- CPU_WriteMem(4 bytes @ 0xE000ED88)CoreSight components:ROMTbl 0 @ E00FF000 -- CPU_ReadMem(16 bytes @ 0xE00FF000) -- CPU_ReadMem(16 bytes @ 0xE000EFF0) -- CPU_ReadMem(16 bytes @ 0xE000EFE0)ROMTbl 0 [0]: FFF0F000, CID: B105E00D, PID: 000BB000 SCS -- CPU_ReadMem(16 bytes @ 0xE0001FF0)
 -- CPU_ReadMem(16 bytes @ 0xE0001FE0)ROMTbl 0 [1]: FFF02000, CID: B105E00D, PID: 003BB002 DWT -- CPU_ReadMem(16 bytes @ 0xE0002FF0) -- CPU_ReadMem(16 bytes @ 0xE0002FE0)ROMTbl 0 [2]: FFF03000, CID: B105E00D, PID: 002BB003 FPB -- CPU_ReadMem(16 bytes @ 0xE0000FF0) -- CPU_ReadMem(16 bytes @ 0xE0000FE0)ROMTbl 0 [3]: FFF01000, CID: B105E00D, PID: 003BB001 ITM -- CPU_ReadMem(16 bytes @ 0xE00FF010) -- CPU_ReadMem(16 bytes @ 0xE0040FF0) -- CPU_ReadMem(16 bytes @ 0xE0040FE0)
ROMTbl 0 [4]: FFF41000, CID: B105900D, PID: 000BB9A1 TPIU  returns 0x00 (0015ms, 1981ms total)
T5AE4 501:034 JLINK_Halt()  returns 0x00 (0003ms, 1984ms total)
T5AE4 501:039 JLINK_JTAG_GetDeviceID(DeviceIndex = 0)  returns 0x4BA00477 (0000ms, 1984ms total)
T5AE4 501:039 JLINK_ReadMemU32(0x400E0740, 0x0001 Items, ...) -- CPU_ReadMem(4 bytes @ 0x400E0740) - Data: E1 0C 4C A6  returns 0x01 (0000ms, 1984ms total)
T5AE4 501:039 JLINK_ReadMemU32(0x400E0744, 0x0001 Items, ...) -- CPU_ReadMem(4 bytes @ 0x400E0744) - Data: 01 00 00 00  returns 0x01 (0001ms, 1985ms total)
T4CD0 501:050 JLINK_IsHalted()  returns TRUE (0000ms, 1985ms total)
T4CD0 501:050 JLINK_GetMOEs(...) -- CPU_ReadMem(4 bytes @ 0xE000ED30)  returns 0x01 (0001ms, 1986ms total)
T4CD0 501:051 JLINK_ReadReg(R15 (PC))  returns 0x010214D0 (0000ms, 1986ms total)
T5AE4 501:197 JLINK_BeginDownload(Flags = 0x00) (0000ms, 1986ms total)
T5AE4 501:197 JLINK_WriteMem(0x01010000, 0x28D40 Bytes, ...) - Data: E8 A2 01 20 91 DB 02 01 2D DC 02 01 2D DC 02 01 ...  returns 0x28D40 (0000ms, 1986ms total)
T5AE4 501:197 JLINK_WriteMem(0x01038D40, 0x0008 Bytes, ...) - Data: 60 79 FF 7F 01 00 00 00  returns 0x08 (0000ms, 1986ms total)
T5AE4 501:197 JLINK_WriteMem(0x01038D48, 0x08EB Bytes, ...) - Data: BF F3 5F 8F 01 38 FB D1 70 47 00 BF 30 B4 82 B0 ...  returns 0x8EB (0001ms, 1987ms total)
T5AE4 501:250 JLINK_EndDownload()Old firmware which does not support pausing periodic actions during flash download -- -------------------------------------- -- Start of determining dirty areas in flash cache -- End of determining dirty areas -- Start of preparing flash programming -- Calculating RAM usage -- RAM usage = 5932 Bytes -- Preserving CPU registers -- Preparing memory -- Determining CPU clock frequency -- Preparing target -- Preserving target RAM temporarily used for programming
 -- Downloading RAMCode -- Checking target RAM -- Preparing RAMCode -- End of preparing flash programming -- CPU speed could not be measured. -- Start of comparing flash -- CRC check was estimated as fastest method -- Comparing range 0x1010000 - 0x102FFFF (32 Sectors, 128 KB), using multi-block CRC calculation -- All CRCs match -- Comparing range 0x1030000 - 0x1039FFF (10 Sectors, 40 KB), using multi-block CRC calculation -- CRC does not match for sector 9
 -- Comparing range 0x1010000 - 0x102FFFF (32 Sectors, 128 KB), using alternative multi-block CRC calculation -- All CRCs match -- Comparing range 0x1030000 - 0x1038FFF (9 Sectors, 36 KB), using alternative multi-block CRC calculation -- All CRCs match -- End of comparing flash -- Start of erasing sectors -- Erasing range 0x01039000 - 0x01039FFF (001 Sector, 4 KB) -- End of erasing sectors -- Start of flash programming -- Programming range 0x01039000 - 0x01039FFF (001 Sector, 4 KB)
 -- End of flash programming -- 0x1039000 - 0x1039FFF (001 Sector, 4 KB) -- Start of verifying flash -- Checksum calculation was estimated as fastest method -- Checksum is not supported by this flash bank. Switched to CRC method. -- End of verifying flash -- Start of restoring -- Restoring RAMCode -- Restoring target memory -- Restore target -- Restore memory -- Restoring CPU registers -- End of restoring -- Flash programming performed for 1 range (4096 bytes)
 -- Total time needed: 0.183s (Prepare: 0.042s, Compare: 0.093s, Erase: 0.020s, Program: 0.004s, Verify: 0.000s, Restore: 0.022s)  returns 0x1000 (0187ms, 2174ms total)
T4CD0 501:437 JLINK_IsHalted()  returns TRUE (0000ms, 2174ms total)
T2E2C 501:553 JLINK_Halt()  returns 0x00 (0001ms, 2175ms total)
T2E2C 501:554 JLINK_ReadReg(R15 (PC))  returns 0x010214D0 (0000ms, 2175ms total)
T2E2C 501:554 JLINK_ReadReg(R13 (SP))  returns 0x2000B8B8 (0000ms, 2175ms total)
T2E2C 501:558 JLINK_ReadMemHW(0x010214D0, 0x0004 Bytes, ...) -- CPU_ReadMem(4 bytes @ 0x010214D0) - Data: 00 28 77 D0  returns 0x00 (0001ms, 2176ms total)
T2E2C 501:559 JLINK_ReadReg(R0)  returns 0x00000000 (0000ms, 2176ms total)
T2E2C 501:559 JLINK_ReadReg(R1)  returns 0x00000000 (0000ms, 2176ms total)
T2E2C 501:559 JLINK_ReadReg(R2)  returns 0x00200000 (0000ms, 2176ms total)
T2E2C 501:559 JLINK_ReadReg(R3)  returns 0x20016AD0 (0000ms, 2176ms total)
T2E2C 501:559 JLINK_ReadReg(R4)  returns 0x20016C2C (0000ms, 2176ms total)
T2E2C 501:559 JLINK_ReadReg(R5)  returns 0x0101603D (0000ms, 2176ms total)
T2E2C 501:559 JLINK_ReadReg(R6)  returns 0x0101F065 (0000ms, 2176ms total)
T2E2C 501:559 JLINK_ReadReg(R7)  returns 0xA5A5A5A5 (0000ms, 2176ms total)
T2E2C 501:559 JLINK_ReadReg(R8)  returns 0x00000000 (0000ms, 2176ms total)
T2E2C 501:559 JLINK_ReadReg(R9)  returns 0x010305B5 (0000ms, 2176ms total)
T2E2C 501:559 JLINK_ReadReg(R10)  returns 0x01019961 (0000ms, 2176ms total)
T2E2C 501:559 JLINK_ReadReg(R11)  returns 0x20017160 (0000ms, 2176ms total)
T2E2C 501:559 JLINK_ReadReg(R12)  returns 0x00000400 (0000ms, 2176ms total)
T2E2C 501:559 JLINK_ReadReg(R13 (SP))  returns 0x2000B8B8 (0000ms, 2176ms total)
T2E2C 501:559 JLINK_ReadReg(R14)  returns 0x010214CF (0000ms, 2176ms total)
T2E2C 501:559 JLINK_ReadReg(R15 (PC))  returns 0x010214D0 (0000ms, 2176ms total)
T2E2C 501:559 JLINK_ReadReg(XPSR)  returns 0x01000000 (0000ms, 2176ms total)
T2E2C 501:559 JLINK_ReadReg(MSP)  returns 0x2001A2C8 (0000ms, 2176ms total)
T2E2C 501:559 JLINK_ReadReg(PSP)  returns 0x2000B8B8 (0000ms, 2176ms total)
T2E2C 501:559 JLINK_ReadReg(PRIMASK)  returns 0x00000000 (0000ms, 2176ms total)
T2E2C 501:559 JLINK_ReadReg(BASEPRI)  returns 0x00000000 (0000ms, 2176ms total)
T2E2C 501:559 JLINK_ReadReg(FAULTMASK)  returns 0x00000000 (0000ms, 2176ms total)
T2E2C 501:559 JLINK_ReadReg(CONTROL)  returns 0x02000000 (0000ms, 2176ms total)
T2E2C 501:560 JLINK_ReadMemHW(0x010214D0, 0x0002 Bytes, ...) -- CPU_ReadMem(2 bytes @ 0x010214D0) - Data: 00 28  returns 0x00 (0000ms, 2176ms total)
T2E2C 501:625 JLINK_ReadReg(R0)  returns 0x00000000 (0000ms, 2176ms total)
T2E2C 501:625 JLINK_ReadReg(R1)  returns 0x00000000 (0000ms, 2176ms total)
T2E2C 501:625 JLINK_ReadReg(R2)  returns 0x00200000 (0000ms, 2176ms total)
T2E2C 501:625 JLINK_ReadReg(R3)  returns 0x20016AD0 (0000ms, 2176ms total)
T2E2C 501:625 JLINK_ReadReg(R4)  returns 0x20016C2C (0000ms, 2176ms total)
T2E2C 501:625 JLINK_ReadReg(R5)  returns 0x0101603D (0000ms, 2176ms total)
T2E2C 501:625 JLINK_ReadReg(R6)  returns 0x0101F065 (0000ms, 2176ms total)
T2E2C 501:625 JLINK_ReadReg(R7)  returns 0xA5A5A5A5 (0000ms, 2176ms total)
T2E2C 501:625 JLINK_ReadReg(R8)  returns 0x00000000 (0000ms, 2176ms total)
T2E2C 501:625 JLINK_ReadReg(R9)  returns 0x010305B5 (0000ms, 2176ms total)
T2E2C 501:625 JLINK_ReadReg(R10)  returns 0x01019961 (0000ms, 2176ms total)
T2E2C 501:625 JLINK_ReadReg(R11)  returns 0x20017160 (0000ms, 2176ms total)
T2E2C 501:625 JLINK_ReadReg(R12)  returns 0x00000400 (0000ms, 2176ms total)
T2E2C 501:625 JLINK_ReadReg(R13 (SP))  returns 0x2000B8B8 (0001ms, 2177ms total)
T2E2C 501:626 JLINK_ReadReg(R14)  returns 0x010214CF (0000ms, 2177ms total)
T2E2C 501:626 JLINK_ReadReg(R15 (PC))  returns 0x010214D0 (0000ms, 2177ms total)
T2E2C 501:626 JLINK_ReadReg(XPSR)  returns 0x01000000 (0000ms, 2177ms total)
T2E2C 501:626 JLINK_ReadReg(MSP)  returns 0x2001A2C8 (0000ms, 2177ms total)
T2E2C 501:626 JLINK_ReadReg(PSP)  returns 0x2000B8B8 (0000ms, 2177ms total)
T2E2C 501:626 JLINK_ReadReg(PRIMASK)  returns 0x00000000 (0000ms, 2177ms total)
T2E2C 501:626 JLINK_ReadReg(BASEPRI)  returns 0x00000000 (0000ms, 2177ms total)
T2E2C 501:626 JLINK_ReadReg(FAULTMASK)  returns 0x00000000 (0000ms, 2177ms total)
T2E2C 501:626 JLINK_ReadReg(CONTROL)  returns 0x02000000 (0000ms, 2177ms total)
T4CD0 501:639 JLINK_IsHalted()  returns TRUE (0000ms, 2177ms total)
T2E2C 501:650 JLINK_ReadMemHW(0x010214D0, 0x0004 Bytes, ...) -- CPU_ReadMem(4 bytes @ 0x010214D0) - Data: 00 28 77 D0  returns 0x00 (0001ms, 2178ms total)
T2E2C 501:690 JLINK_ReadMemHW(0x01010596, 0x0002 Bytes, ...) -- CPU_ReadMem(2 bytes @ 0x01010596) - Data: 02 68  returns 0x00 (0001ms, 2179ms total)
T2E2C 501:691 JLINK_ReadMemHW(0x010105D0, 0x0002 Bytes, ...) -- CPU_ReadMem(2 bytes @ 0x010105D0) - Data: 13 7A  returns 0x00 (0001ms, 2180ms total)
T5AE4 501:754 JLINK_GetNumBPUnits(Type = 0xFFFFFF02)  returns 0x06 (0000ms, 2180ms total)
T5AE4 501:754 JLINK_SetBPEx(Addr = 0x010105D0, Type = 0xFFFFFFF2)  returns 0x00000003 (0000ms, 2180ms total)
T5AE4 501:754 JLINK_GetBPInfo(BPHandle = 3)  returns 0x00 (0001ms, 2181ms total)
T2E2C 501:765 JLINK_Reset() -- CPU_ReadMem(16 bytes @ 0x20000000) -- CPU_WriteMem(16 bytes @ 0x20000000) -- CPU_ReadMem(4 bytes @ 0xE000EDFC) -- CPU_WriteMem(4 bytes @ 0xE000EDFC) -- CPU_ReadMem(4 bytes @ 0xE0001000) -- CPU_WriteMem(4 bytes @ 0xE000EDFC) -- CPU_WriteMem(16 bytes @ 0x20000000) -- CPU_WriteMem(4 bytes @ 0xE0002000) -- CPU_ReadMem(4 bytes @ 0xE000EDFC) -- CPU_ReadMem(4 bytes @ 0xE0001000) (0023ms, 2204ms total)
T4CD0 501:788 JLINK_IsHalted()  returns TRUE (0000ms, 2204ms total)
T4CD0 501:788 JLINK_GetMOEs(...) -- CPU_ReadMem(4 bytes @ 0xE000ED30)  returns 0x01 (0000ms, 2204ms total)
T4CD0 501:788 JLINK_ReadReg(R15 (PC))  returns 0x01004358 (0000ms, 2204ms total)
T2E2C 501:798 JLINK_ReadReg(R15 (PC))  returns 0x01004358 (0000ms, 2204ms total)
T2E2C 501:798 JLINK_ReadReg(R13 (SP))  returns 0x20004E78 (0000ms, 2204ms total)
T2E2C 501:798 JLINK_ReadMemHW(0x01004358, 0x0004 Bytes, ...) -- CPU_ReadMem(4 bytes @ 0x01004358) - Data: 08 B5 1D 4A  returns 0x00 (0000ms, 2204ms total)
T2E2C 501:799 JLINK_ReadReg(R0)  returns 0x00000000 (0000ms, 2204ms total)
T2E2C 501:799 JLINK_ReadReg(R1)  returns 0x00000000 (0000ms, 2204ms total)
T2E2C 501:799 JLINK_ReadReg(R2)  returns 0x00000000 (0000ms, 2204ms total)
T2E2C 501:799 JLINK_ReadReg(R3)  returns 0x00000000 (0000ms, 2204ms total)
T2E2C 501:799 JLINK_ReadReg(R4)  returns 0x00000000 (0000ms, 2204ms total)
T2E2C 501:799 JLINK_ReadReg(R5)  returns 0x00000000 (0000ms, 2204ms total)
T2E2C 501:799 JLINK_ReadReg(R6)  returns 0x00000000 (0000ms, 2204ms total)
T2E2C 501:799 JLINK_ReadReg(R7)  returns 0x00000000 (0000ms, 2204ms total)
T2E2C 501:799 JLINK_ReadReg(R8)  returns 0x00000000 (0000ms, 2204ms total)
T2E2C 501:799 JLINK_ReadReg(R9)  returns 0x00000000 (0000ms, 2204ms total)
T2E2C 501:799 JLINK_ReadReg(R10)  returns 0x00000000 (0000ms, 2204ms total)
T2E2C 501:799 JLINK_ReadReg(R11)  returns 0x00000000 (0000ms, 2204ms total)
T2E2C 501:799 JLINK_ReadReg(R12)  returns 0x00000000 (0000ms, 2204ms total)
T2E2C 501:799 JLINK_ReadReg(R13 (SP))  returns 0x20004E78 (0000ms, 2204ms total)
T2E2C 501:799 JLINK_ReadReg(R14)  returns 0xFFFFFFFF (0000ms, 2204ms total)
T2E2C 501:799 JLINK_ReadReg(R15 (PC))  returns 0x01004358 (0000ms, 2204ms total)
T2E2C 501:799 JLINK_ReadReg(XPSR)  returns 0x01000000 (0000ms, 2204ms total)
T2E2C 501:799 JLINK_ReadReg(MSP)  returns 0x20004E78 (0000ms, 2204ms total)
T2E2C 501:799 JLINK_ReadReg(PSP)  returns 0x00000000 (0000ms, 2204ms total)
T2E2C 501:799 JLINK_ReadReg(PRIMASK)  returns 0x00000000 (0000ms, 2204ms total)
T2E2C 501:799 JLINK_ReadReg(BASEPRI)  returns 0x00000000 (0000ms, 2204ms total)
T2E2C 501:799 JLINK_ReadReg(FAULTMASK)  returns 0x00000000 (0000ms, 2204ms total)
T2E2C 501:799 JLINK_ReadReg(CONTROL)  returns 0x00000000 (0000ms, 2204ms total)
T2E2C 501:800 JLINK_ReadMemHW(0x01004358, 0x0002 Bytes, ...) -- CPU_ReadMem(2 bytes @ 0x01004358) - Data: 08 B5  returns 0x00 (0000ms, 2204ms total)
T2E2C 501:834 JLINK_ReadMemHW(0x0102F630, 0x0001 Bytes, ...) -- CPU_ReadMem(1 bytes @ 0x0102F630) - Data: 08  returns 0x00 (0000ms, 2204ms total)
T2E2C 501:868 JLINK_ReadReg(R15 (PC))  returns 0x01004358 (0000ms, 2204ms total)
T2E2C 501:868 JLINK_SetBPEx(Addr = 0x0102F630, Type = 0xFFFFFFF2)  returns 0x00000004 (0000ms, 2204ms total)
T2E2C 501:868 JLINK_GetBPInfo(BPHandle = 4)  returns 0x00 (0000ms, 2204ms total)
T2E2C 501:868 JLINK_Go() -- CPU_WriteMem(4 bytes @ 0xE0002000) -- CPU_ReadMem(4 bytes @ 0xE0001000) -- CPU_WriteMem(4 bytes @ 0xE000ED30) -- CPU_WriteMem(4 bytes @ 0xE0002008) -- CPU_WriteMem(4 bytes @ 0xE000200C) -- CPU_WriteMem(4 bytes @ 0xE0002010) -- CPU_WriteMem(4 bytes @ 0xE0002014) -- CPU_WriteMem(4 bytes @ 0xE0002018) -- CPU_WriteMem(4 bytes @ 0xE000201C) -- CPU_WriteMem(4 bytes @ 0xE0001004) (0004ms, 2208ms total)
T4CD0 501:872 JLINK_IsHalted()  returns FALSE (0000ms, 2208ms total)
T4CD0 501:892 JLINK_IsHalted()  returns FALSE (0000ms, 2208ms total)
T4CD0 501:972 JLINK_IsHalted()  returns FALSE (0000ms, 2208ms total)
T4CD0 502:172 JLINK_IsHalted()  returns FALSE (0000ms, 2208ms total)
T4CD0 502:373 JLINK_IsHalted()  returns FALSE (0000ms, 2208ms total)
T4CD0 502:573 JLINK_IsHalted()  returns FALSE (0000ms, 2208ms total)
T4CD0 502:774 JLINK_IsHalted()  returns FALSE (0000ms, 2208ms total)
T4CD0 502:975 JLINK_IsHalted()  returns FALSE (0000ms, 2208ms total)
T4CD0 503:175 JLINK_IsHalted()  returns TRUE (0003ms, 2211ms total)
T4CD0 503:178 JLINK_GetMOEs(...) -- CPU_ReadMem(4 bytes @ 0xE000ED30)  returns 0x01 (0000ms, 2208ms total)
T4CD0 503:178 JLINK_ReadReg(R15 (PC))  returns 0x0102F630 (0000ms, 2208ms total)
T2E2C 503:185 JLINK_ReadReg(R15 (PC))  returns 0x0102F630 (0000ms, 2208ms total)
T2E2C 503:185 JLINK_ReadReg(R13 (SP))  returns 0x2001A308 (0000ms, 2208ms total)
T2E2C 503:185 JLINK_ReadMemHW(0x0102F630, 0x0004 Bytes, ...) -- CPU_ReadMem(4 bytes @ 0x0102F630) - Data: 08 B5 14 4D  returns 0x00 (0001ms, 2209ms total)
T2E2C 503:200 JLINK_WriteU32(0xE000EDFC, 0x01000000) -- CPU_WriteMem(4 bytes @ 0xE000EDFC)  returns 0x00 (0000ms, 2209ms total)
T2E2C 503:200 JLINK_ReadMem (0xE0001000, 0x0004 Bytes, ...) -- CPU_ReadMem(4 bytes @ 0xE0001000) - Data: 01 00 00 40  returns 0x00 (0001ms, 2210ms total)
T2E2C 503:201 JLINK_WriteU32(0xE0001000, 0x40000001)  returns 0x00 (0000ms, 2210ms total)
T2E2C 503:201 JLINK_WriteU32(0xE0001028, 0x00000100)  returns 0x00 (0000ms, 2210ms total)
T2E2C 503:201 JLINK_ReadMem (0xE0001028, 0x0004 Bytes, ...) -- CPU_WriteMem(4 bytes @ 0xE0001028) -- CPU_ReadMem(4 bytes @ 0xE0001028) - Data: 00 00 00 00  returns 0x00 (0001ms, 2211ms total)
T2E2C 503:202 JLINK_WriteU32(0xE0001024, 0x0000001F)  returns 0x00 (0000ms, 2211ms total)
T2E2C 503:202 JLINK_ReadMem (0xE0001024, 0x0004 Bytes, ...) -- CPU_WriteMem(4 bytes @ 0xE0001024) -- CPU_ReadMem(4 bytes @ 0xE0001024) - Data: 0F 00 00 00  returns 0x00 (0001ms, 2212ms total)
T2E2C 503:203 JLINK_WriteU32(0xE0001038, 0x00000100)  returns 0x00 (0000ms, 2212ms total)
T2E2C 503:203 JLINK_ReadMem (0xE0001038, 0x0004 Bytes, ...) -- CPU_WriteMem(4 bytes @ 0xE0001038) -- CPU_ReadMem(4 bytes @ 0xE0001038) - Data: 00 03 00 00  returns 0x00 (0001ms, 2213ms total)
T2E2C 503:204 JLINK_WriteU32(0xE0001034, 0x0000001F)  returns 0x00 (0000ms, 2213ms total)
T2E2C 503:204 JLINK_ReadMem (0xE0001034, 0x0004 Bytes, ...) -- CPU_WriteMem(4 bytes @ 0xE0001034) -- CPU_ReadMem(4 bytes @ 0xE0001034) - Data: 0F 00 00 00  returns 0x00 (0000ms, 2213ms total)
T2E2C 503:204 JLINK_WriteU32(0xE0001048, 0x00000100)  returns 0x00 (0000ms, 2213ms total)
T2E2C 503:204 JLINK_ReadMem (0xE0001048, 0x0004 Bytes, ...) -- CPU_WriteMem(4 bytes @ 0xE0001048) -- CPU_ReadMem(4 bytes @ 0xE0001048) - Data: 00 00 00 00  returns 0x00 (0001ms, 2214ms total)
T2E2C 503:205 JLINK_WriteU32(0xE0001044, 0x0000001F)  returns 0x00 (0000ms, 2214ms total)
T2E2C 503:205 JLINK_ReadMem (0xE0001044, 0x0004 Bytes, ...) -- CPU_WriteMem(4 bytes @ 0xE0001044) -- CPU_ReadMem(4 bytes @ 0xE0001044) - Data: 0F 00 00 00  returns 0x00 (0001ms, 2215ms total)
T2E2C 503:206 JLINK_WriteU32(0xE0001058, 0x00000100)  returns 0x00 (0000ms, 2215ms total)
T2E2C 503:206 JLINK_ReadMem (0xE0001058, 0x0004 Bytes, ...) -- CPU_WriteMem(4 bytes @ 0xE0001058) -- CPU_ReadMem(4 bytes @ 0xE0001058) - Data: 00 00 00 00  returns 0x00 (0001ms, 2216ms total)
T2E2C 503:207 JLINK_WriteU32(0xE0001054, 0x0000001F)  returns 0x00 (0000ms, 2216ms total)
T2E2C 503:207 JLINK_ReadMem (0xE0001054, 0x0004 Bytes, ...) -- CPU_WriteMem(4 bytes @ 0xE0001054) -- CPU_ReadMem(4 bytes @ 0xE0001054) - Data: 0F 00 00 00  returns 0x00 (0001ms, 2217ms total)
T2E2C 503:208 JLINK_WriteU32(0xE0001020, 0x00000000)  returns 0x00 (0000ms, 2217ms total)
T2E2C 503:208 JLINK_WriteU32(0xE0001024, 0x00000000)  returns 0x00 (0000ms, 2217ms total)
T2E2C 503:208 JLINK_WriteU32(0xE0001028, 0x00000000)  returns 0x00 (0000ms, 2217ms total)
T2E2C 503:208 JLINK_WriteU32(0xE0001030, 0x00000000)  returns 0x00 (0000ms, 2217ms total)
T2E2C 503:208 JLINK_WriteU32(0xE0001034, 0x00000000)  returns 0x00 (0000ms, 2217ms total)
T2E2C 503:208 JLINK_WriteU32(0xE0001038, 0x00000000)  returns 0x00 (0000ms, 2217ms total)
T2E2C 503:208 JLINK_WriteU32(0xE0001040, 0x00000000)  returns 0x00 (0000ms, 2217ms total)
T2E2C 503:208 JLINK_WriteU32(0xE0001044, 0x00000000)  returns 0x00 (0000ms, 2217ms total)
T2E2C 503:208 JLINK_WriteU32(0xE0001048, 0x00000000)  returns 0x00 (0000ms, 2217ms total)
T2E2C 503:208 JLINK_WriteU32(0xE0001050, 0x00000000)  returns 0x00 (0000ms, 2217ms total)
T2E2C 503:208 JLINK_WriteU32(0xE0001054, 0x00000000)  returns 0x00 (0000ms, 2217ms total)
T2E2C 503:208 JLINK_WriteU32(0xE0001058, 0x00000000)  returns 0x00 (0000ms, 2217ms total)
T2E2C 503:208 JLINK_GetBPInfo(BPHandle = 4)  returns 0x00 (0000ms, 2217ms total)
T2E2C 503:208 JLINK_ClrBPEx(BPHandle = 0x00000004)  returns 0x00 (0000ms, 2217ms total)
T2E2C 503:208 JLINK_ReadReg(R15 (PC))  returns 0x0102F630 (0000ms, 2217ms total)
T2E2C 503:208 JLINK_Go() -- CPU_WriteMem(4 bytes @ 0xE0002000) -- CPU_WriteMem(4 bytes @ 0xE0001000) -- CPU_ReadMem(4 bytes @ 0xE0001000) -- CPU_WriteMem(4 bytes @ 0xE000ED30) -- CPU_WriteMem(4 bytes @ 0xE0001020) -- CPU_WriteMem(4 bytes @ 0xE0001030) -- CPU_WriteMem(4 bytes @ 0xE0001040) -- CPU_WriteMem(4 bytes @ 0xE0001050) -- CPU_WriteMem(4 bytes @ 0xE0001024) -- CPU_WriteMem(4 bytes @ 0xE0001034) -- CPU_WriteMem(4 bytes @ 0xE0001044) -- CPU_WriteMem(4 bytes @ 0xE0001054)
 -- CPU_WriteMem(4 bytes @ 0xE0001028) -- CPU_WriteMem(4 bytes @ 0xE0001038) -- CPU_WriteMem(4 bytes @ 0xE0001048) -- CPU_WriteMem(4 bytes @ 0xE0001058) -- CPU_WriteMem(4 bytes @ 0xE000200C) (0006ms, 2223ms total)
T4CD0 503:214 JLINK_IsHalted()  returns FALSE (0000ms, 2223ms total)
T4CD0 503:254 JLINK_IsHalted()  returns FALSE (0000ms, 2223ms total)
T4CD0 503:415 JLINK_IsHalted()  returns FALSE (0000ms, 2223ms total)
T4CD0 503:615 JLINK_IsHalted()  returns FALSE (0000ms, 2223ms total)
T4CD0 503:816 JLINK_IsHalted()  returns FALSE (0000ms, 2223ms total)
T4CD0 504:020 JLINK_IsHalted()  returns FALSE (0001ms, 2224ms total)
T4CD0 504:222 JLINK_IsHalted()  returns FALSE (0000ms, 2223ms total)
T4CD0 504:422 JLINK_IsHalted()  returns FALSE (0000ms, 2223ms total)
T4CD0 504:623 JLINK_IsHalted()  returns FALSE (0000ms, 2223ms total)
T4CD0 504:823 JLINK_IsHalted()  returns FALSE (0000ms, 2223ms total)
T4CD0 505:024 JLINK_IsHalted()  returns FALSE (0000ms, 2223ms total)
T4CD0 505:225 JLINK_IsHalted()  returns FALSE (0000ms, 2223ms total)
T4CD0 505:425 JLINK_IsHalted()  returns FALSE (0000ms, 2223ms total)
T4CD0 505:626 JLINK_IsHalted()  returns FALSE (0000ms, 2223ms total)
T4CD0 505:826 JLINK_IsHalted()  returns FALSE (0000ms, 2223ms total)
T4CD0 506:028 JLINK_IsHalted()  returns FALSE (0000ms, 2223ms total)
T4CD0 506:229 JLINK_IsHalted()  returns FALSE (0000ms, 2223ms total)
T4CD0 506:430 JLINK_IsHalted()  returns FALSE (0000ms, 2223ms total)
T4CD0 506:630 JLINK_IsHalted()  returns FALSE (0000ms, 2223ms total)
T4CD0 506:831 JLINK_IsHalted()  returns FALSE (0000ms, 2223ms total)
T4CD0 507:031 JLINK_IsHalted()  returns FALSE (0000ms, 2223ms total)
T4CD0 507:233 JLINK_IsHalted()  returns FALSE (0000ms, 2223ms total)
T2E2C 507:252 JLINK_Halt()  returns 0x00 (0003ms, 2226ms total)
T5AE4 507:353 JLINK_GetBPInfo(BPHandle = 3)  returns 0x00 (0000ms, 2226ms total)
T5AE4 507:353 JLINK_ClrBPEx(BPHandle = 0x00000003)  returns 0x00 (0000ms, 2226ms total)
T4CD0 507:433 JLINK_IsHalted()  returns TRUE (0000ms, 2226ms total)
T4CD0 507:433 JLINK_GetMOEs(...) -- CPU_ReadMem(4 bytes @ 0xE000ED30)  returns 0x01 (0000ms, 2226ms total)
T4CD0 507:433 JLINK_ReadReg(R15 (PC))  returns 0x0101F064 (0000ms, 2226ms total)
T5AE4 507:434 JLINK_ResetPullsRESET(ON) (0000ms, 2226ms total)
T5AE4 507:434 JLINK_ResetNoHalt() >0x2F8 JTAG>TotalIRLen = 4, IRPrint = 0x01 >0x30 JTAG> >0x410 JTAG> >0x70 JTAG> >0x48 JTAG> >0x40 JTAG> >0x48 JTAG>AP-IDR: 0x24770011, Type: AHB-APStart searching for Cortex-M ROM table with ROMTable[0] @ 0xE00FF000.ROMTable[1]: Cortex-M ROM table found. >0x78 JTAG> >0x40 JTAG> >0x30 JTAG> >0x40 JTAG> >0x40 JTAG> >0x30 JTAG> >0x40 JTAG> >0x48 JTAG> -- CPU_ReadMem(4 bytes @ 0xE000EDF0) -- CPU_ReadMem(4 bytes @ 0xE0002000) -- CPU_ReadMem(4 bytes @ 0xE0001000)
